Time [s],Channel 0,Channel 4,Channel 5
0.000000000,0,0,1
0.001753000,0,0,0
0.001755375,1,0,0
0.001756500,0,0,0
0.001757750,1,0,0
0.001758875,0,0,0
0.001760167,1,0,0
0.001761292,0,0,0
0.001762542,1,0,0
0.001763667,0,0,0
0.001764917,1,0,0
0.001766083,0,0,0
0.001766708,0,1,0
0.001767458,1,1,0
0.001768583,0,1,0
0.001769958,1,1,0
0.001771083,0,1,0
0.001772500,1,1,0
0.001773500,0,1,0
0.001774500,0,0,0
0.001775375,1,0,0
0.001776875,0,0,0
0.001777375,1,0,0
0.001778917,0,1,0
0.001779417,1,1,0
0.001780917,0,0,0
0.001781417,1,0,0
0.001782917,0,1,0
0.001783417,1,1,0
0.001784917,0,1,0
0.001785458,1,1,0
0.001786958,0,1,0
0.001787458,1,1,0
0.001788958,0,0,0
0.001789458,1,0,0
0.001790833,0,0,0
0.001791625,0,0,1
0.001791792,0,1,1
0.001796375,0,1,0
0.001799042,1,1,0
0.001800167,0,1,0
0.001801542,1,1,0
0.001802667,0,1,0
0.001804042,1,1,0
0.001805208,0,1,0
0.001805958,0,0,0
0.001806458,1,0,0
0.001807583,0,0,0
0.001808833,1,0,0
0.001809958,0,0,0
0.001811250,1,0,0
0.001812375,0,0,0
0.001813625,1,0,0
0.001814750,0,0,0
0.001815375,0,1,0
0.001816125,1,1,0
0.001817125,0,1,0
0.001819417,0,0,0
0.001819917,1,0,0
0.001821042,0,0,0
0.001822292,1,0,0
0.001823458,0,0,0
0.001824708,1,0,0
0.001825833,0,0,0
0.001827083,1,0,0
0.001828208,0,0,0
0.001829458,1,0,0
0.001830625,0,0,0
0.001831875,1,0,0
0.001833000,0,0,0
0.001834250,1,0,0
0.001835375,0,0,0
0.001836667,1,0,0
0.001837667,0,0,0
0.001838417,0,0,1
0.001842042,0,0,0
0.001843958,0,1,0
0.001844708,1,1,0
0.001845833,0,1,0
0.001847208,1,1,0
0.001848333,0,1,0
0.001849708,1,1,0
0.001850875,0,1,0
0.001851625,0,0,0
0.001852125,1,0,0
0.001853250,0,0,0
0.001854500,1,0,0
0.001855625,0,0,0
0.001856917,1,0,0
0.001858042,0,0,0
0.001858667,0,1,0
0.001859417,1,1,0
0.001860542,0,1,0
0.001861292,0,0,0
0.001861792,1,0,0
0.001862792,0,0,0
0.001865583,1,0,0
0.001866708,0,0,0
0.001867958,1,0,0
0.001869083,0,0,0
0.001870375,1,0,0
0.001871500,0,0,0
0.001872750,1,0,0
0.001873875,0,0,0
0.001875125,1,0,0
0.001876250,0,0,0
0.001877542,1,0,0
0.001878667,0,0,0
0.001879917,1,0,0
0.001881042,0,0,0
0.001882292,1,0,0
0.001883333,0,0,0
0.001884083,0,0,1
0.001887833,0,0,0
0.001890375,1,0,0
0.001891500,0,0,0
0.001892750,1,0,0
0.001893875,0,0,0
0.001894500,0,1,0
0.001895250,1,1,0
0.001896375,0,1,0
0.001897167,0,0,0
0.001897667,1,0,0
0.001898792,0,0,0
0.001900042,1,0,0
0.001901167,0,0,0
0.001901792,0,1,0
0.001902542,1,1,0
0.001903708,0,1,0
0.001905083,1,1,0
0.001906208,0,1,0
0.001907583,1,1,0
0.001908583,0,1,0
0.001910875,0,0,0
0.001911375,1,0,0
0.001912500,0,0,0
0.001913125,0,1,0
0.001913875,1,1,0
0.001915000,0,1,0
0.001916375,1,1,0
0.001917542,0,1,0
0.001918917,1,1,0
0.001920042,0,1,0
0.001920792,0,0,0
0.001921292,1,0,0
0.001922417,0,0,0
0.001923667,1,0,0
0.001924833,0,0,0
0.001926083,1,0,0
0.001927208,0,0,0
0.001928458,1,0,0
0.001929458,0,0,0
0.001930208,0,0,1
0.004761792,0,0,0
0.004763708,0,1,0
0.004764458,1,1,0
0.004765583,0,1,0
0.004766958,1,1,0
0.004768083,0,1,0
0.004769458,1,1,0
0.004770625,0,1,0
0.004771375,0,0,0
0.004771875,1,0,0
0.004773000,0,0,0
0.004774250,1,0,0
0.004775375,0,0,0
0.004776667,1,0,0
0.004777792,0,0,0
0.004779042,1,0,0
0.004780167,0,0,0
0.004780792,0,1,0
0.004781542,1,1,0
0.004782542,0,1,0
0.004784833,0,0,0
0.004785333,1,0,0
0.004786458,0,0,0
0.004787708,1,0,0
0.004788833,0,0,0
0.004790125,1,0,0
0.004791250,0,0,0
0.004792500,1,0,0
0.004793625,0,0,0
0.004794875,1,0,0
0.004796000,0,0,0
0.004797292,1,0,0
0.004798417,0,0,0
0.004799667,1,0,0
0.004800792,0,0,0
0.004802042,1,0,0
0.004803042,0,0,0
0.004803833,0,0,1
0.004807458,0,0,0
0.004809333,0,1,0
0.004810083,1,1,0
0.004811250,0,1,0
0.004812625,1,1,0
0.004813750,0,1,0
0.004815125,1,1,0
0.004816250,0,1,0
0.004817000,0,0,0
0.004817500,1,0,0
0.004818667,0,0,0
0.004819917,1,0,0
0.004821042,0,0,0
0.004822292,1,0,0
0.004823417,0,0,0
0.004824042,0,1,0
0.004824833,1,1,0
0.004825958,0,1,0
0.004826708,0,0,0
0.004827208,1,0,0
0.004828208,0,0,0
0.004830958,1,0,0
0.004832125,0,0,0
0.004833375,1,0,0
0.004834500,0,0,0
0.004835750,1,0,0
0.004836875,0,0,0
0.004838125,1,0,0
0.004839292,0,0,0
0.004840542,1,0,0
0.004841667,0,0,0
0.004842917,1,0,0
0.004844042,0,0,0
0.004845292,1,0,0
0.004846458,0,0,0
0.004847708,1,0,0
0.004848708,0,0,0
0.004849458,0,0,1
0.004853208,0,0,0
0.004855750,1,0,0
0.004856875,0,0,0
0.004858125,1,0,0
0.004859250,0,0,0
0.004859875,0,1,0
0.004860667,1,1,0
0.004861792,0,1,0
0.004862542,0,0,0
0.004863042,1,0,0
0.004864167,0,0,0
0.004865417,1,0,0
0.004866542,0,0,0
0.004867167,0,1,0
0.004867958,1,1,0
0.004869083,0,1,0
0.004870458,1,1,0
0.004871583,0,1,0
0.004872958,1,1,0
0.004873958,0,1,0
0.004876250,0,0,0
0.004876750,1,0,0
0.004877875,0,0,0
0.004878500,0,1,0
0.004879250,1,1,0
0.004880375,0,1,0
0.004881750,1,1,0
0.004882917,0,1,0
0.004884292,1,1,0
0.004885417,0,1,0
0.004886167,0,0,0
0.004886667,1,0,0
0.004887792,0,0,0
0.004889042,1,0,0
0.004890208,0,0,0
0.004891458,1,0,0
0.004892583,0,0,0
0.004893833,1,0,0
0.004894833,0,0,0
0.004895583,0,0,1
0.004959625,0,0,0
0.004962167,1,0,0
0.004963292,0,0,0
0.004964542,1,0,0
0.004965667,0,0,0
0.004966333,0,1,0
0.004967083,1,1,0
0.004968208,0,1,0
0.004968958,0,0,0
0.004969458,1,0,0
0.004970583,0,0,0
0.004971833,1,0,0
0.004973000,0,0,0
0.004973625,0,1,0
0.004974375,1,1,0
0.004975500,0,1,0
0.004976250,0,0,0
0.004976750,1,0,0
0.004977875,0,0,0
0.004978500,0,1,0
0.004979292,1,1,0
0.004980292,0,1,0
0.004982542,0,0,0
0.004983042,1,0,0
0.004984167,0,0,0
0.004985458,1,0,0
0.004986583,0,0,0
0.004987833,1,0,0
0.004988958,0,0,0
0.004990208,1,0,0
0.004991333,0,0,0
0.004992625,1,0,0
0.004993750,0,0,0
0.004995000,1,0,0
0.004996125,0,0,0
0.004997375,1,0,0
0.004998542,0,0,0
0.004999167,0,1,0
0.004999917,1,1,0
0.005000917,0,1,0
0.005001667,0,1,1
0.005005708,0,1,0
0.005007708,0,0,0
0.005008208,1,0,0
0.005009333,0,0,0
0.005010625,1,0,0
0.005011750,0,0,0
0.005012375,0,1,0
0.005013125,1,1,0
0.005014250,0,1,0
0.005015000,0,0,0
0.005015500,1,0,0
0.005016667,0,0,0
0.005017917,1,0,0
0.005019042,0,0,0
0.005020292,1,0,0
0.005021417,0,0,0
0.005022708,1,0,0
0.005023833,0,0,0
0.005025083,1,0,0
0.005026083,0,0,0
0.005028208,0,1,0
0.005029000,1,1,0
0.005030125,0,1,0
0.005030875,0,0,0
0.005031375,1,0,0
0.005032500,0,0,0
0.005033750,1,0,0
0.005034875,0,0,0
0.005036167,1,0,0
0.005037292,0,0,0
0.005037917,0,1,0
0.005038667,1,1,0
0.005039792,0,1,0
0.005041167,1,1,0
0.005042333,0,1,0
0.005043708,1,1,0
0.005044833,0,1,0
0.005045583,0,0,0
0.005046083,1,0,0
0.005047083,0,0,0
0.005047875,0,0,1
0.005051625,0,0,0
0.005054167,1,0,0
0.005055292,0,0,0
0.005056542,1,0,0
0.005057667,0,0,0
0.005058292,0,1,0
0.005059042,1,1,0
0.005060167,0,1,0
0.005060958,0,0,0
0.005061458,1,0,0
0.005062583,0,0,0
0.005063833,1,0,0
0.005064958,0,0,0
0.005065583,0,1,0
0.005066333,1,1,0
0.005067500,0,1,0
0.005068875,1,1,0
0.005070000,0,1,0
0.005071375,1,1,0
0.005072375,0,1,0
0.005074667,0,0,0
0.005075167,1,0,0
0.005076292,0,0,0
0.005076917,0,1,0
0.005077667,1,1,0
0.005078792,0,1,0
0.005080208,1,1,0
0.005081333,0,1,0
0.005082708,1,1,0
0.005083833,0,1,0
0.005084583,0,0,0
0.005085083,1,0,0
0.005086208,0,0,0
0.005087500,1,0,0
0.005088625,0,0,0
0.005089875,1,0,0
0.005091000,0,0,0
0.005092250,1,0,0
0.005093292,0,0,0
0.005094042,0,0,1
0.005097667,0,0,0
0.005099542,0,1,0
0.005100333,1,1,0
0.005101458,0,1,0
0.005102833,1,1,0
0.005103958,0,1,0
0.005105333,1,1,0
0.005106500,0,1,0
0.005107250,0,0,0
0.005107750,1,0,0
0.005108875,0,0,0
0.005110125,1,0,0
0.005111250,0,0,0
0.005112542,1,0,0
0.005113667,0,0,0
0.005114917,1,0,0
0.005116042,0,0,0
0.005116667,0,1,0
0.005117417,1,1,0
0.005118458,0,1,0
0.005120708,0,0,0
0.005121208,1,0,0
0.005122333,0,0,0
0.005123583,1,0,0
0.005124708,0,0,0
0.005126000,1,0,0
0.005127125,0,0,0
0.005128375,1,0,0
0.005129500,0,0,0
0.005130750,1,0,0
0.005131917,0,0,0
0.005133167,1,0,0
0.005134292,0,0,0
0.005135542,1,0,0
0.005136667,0,0,0
0.005137917,1,0,0
0.005138958,0,0,0
0.005139708,0,0,1
0.005143333,0,0,0
0.005145250,0,1,0
0.005146000,1,1,0
0.005147125,0,1,0
0.005148500,1,1,0
0.005149625,0,1,0
0.005151000,1,1,0
0.005152167,0,1,0
0.005152917,0,0,0
0.005153417,1,0,0
0.005154542,0,0,0
0.005155792,1,0,0
0.005156917,0,0,0
0.005158167,1,0,0
0.005159333,0,0,0
0.005159958,0,1,0
0.005160708,1,1,0
0.005161833,0,1,0
0.005162583,0,0,0
0.005163083,1,0,0
0.005164083,0,0,0
0.005166875,1,0,0
0.005168000,0,0,0
0.005169250,1,0,0
0.005170375,0,0,0
0.005171667,1,0,0
0.005172792,0,0,0
0.005174042,1,0,0
0.005175167,0,0,0
0.005176417,1,0,0
0.005177542,0,0,0
0.005178833,1,0,0
0.005179958,0,0,0
0.005181208,1,0,0
0.005182333,0,0,0
0.005183583,1,0,0
0.005184625,0,0,0
0.005185375,0,0,1
0.005201333,0,0,0
0.005203208,0,1,0
0.005203958,1,1,0
0.005205125,0,1,0
0.005205875,0,0,0
0.005206375,1,0,0
0.005207500,0,0,0
0.005208125,0,1,0
0.005208875,1,1,0
0.005210000,0,1,0
0.005210792,0,0,0
0.005211292,1,0,0
0.005212417,0,0,0
0.005213667,1,0,0
0.005214792,0,0,0
0.005216042,1,0,0
0.005217208,0,0,0
0.005218458,1,0,0
0.005219583,0,0,0
0.005220833,1,0,0
0.005221833,0,0,0
0.005226000,1,0,0
0.005227125,0,0,0
0.005228375,1,0,0
0.005229500,0,0,0
0.005230792,1,0,0
0.005231917,0,0,0
0.005232542,0,1,0
0.005233292,1,1,0
0.005234417,0,1,0
0.005235167,0,0,0
0.005235667,1,0,0
0.005236792,0,0,0
0.005237458,0,1,0
0.005238208,1,1,0
0.005239333,0,1,0
0.005240708,1,1,0
0.005241833,0,1,0
0.005242583,0,0,0
0.005243083,1,0,0
0.005244125,0,0,0
0.005248500,1,0,0
0.005249625,0,0,0
0.005250917,1,0,0
0.005252042,0,0,0
0.005253292,1,0,0
0.005254417,0,0,0
0.005255042,0,1,0
0.005255792,1,1,0
0.005256917,0,1,0
0.005257708,0,0,0
0.005258208,1,0,0
0.005259333,0,0,0
0.005260583,1,0,0
0.005261708,0,0,0
0.005262958,1,0,0
0.005264083,0,0,0
0.005265375,1,0,0
0.005266375,0,0,0
0.005270750,1,0,0
0.005271917,0,0,0
0.005273167,1,0,0
0.005274292,0,0,0
0.005275542,1,0,0
0.005276667,0,0,0
0.005277958,1,0,0
0.005279083,0,0,0
0.005280333,1,0,0
0.005281458,0,0,0
0.005282708,1,0,0
0.005283833,0,0,0
0.005285125,1,0,0
0.005286250,0,0,0
0.005287500,1,0,0
0.005288500,0,0,0
0.005292292,0,1,0
0.005293042,1,1,0
0.005294167,0,1,0
0.005295542,1,1,0
0.005296667,0,1,0
0.005298042,1,1,0
0.005299208,0,1,0
0.005299958,0,0,0
0.005300458,1,0,0
0.005301583,0,0,0
0.005302208,0,1,0
0.005302958,1,1,0
0.005304083,0,1,0
0.005305458,1,1,0
0.005306625,0,1,0
0.005307375,0,0,0
0.005307875,1,0,0
0.005309000,0,0,0
0.005310250,1,0,0
0.005311250,0,0,0
0.005315042,0,1,0
0.005315792,1,1,0
0.005316917,0,1,0
0.005318292,1,1,0
0.005319458,0,1,0
0.005320833,1,1,0
0.005321958,0,1,0
0.005322708,0,0,0
0.005323208,1,0,0
0.005324333,0,0,0
0.005324958,0,1,0
0.005325708,1,1,0
0.005326875,0,1,0
0.005327625,0,0,0
0.005328125,1,0,0
0.005329250,0,0,0
0.005330500,1,0,0
0.005331625,0,0,0
0.005332250,0,1,0
0.005333042,1,1,0
0.005334042,0,1,0
0.005337917,0,0,0
0.005338417,1,0,0
0.005339583,0,0,0
0.005340833,1,0,0
0.005341958,0,0,0
0.005343208,1,0,0
0.005344333,0,0,0
0.005345583,1,0,0
0.005346750,0,0,0
0.005348000,1,0,0
0.005349125,0,0,0
0.005350375,1,0,0
0.005351500,0,0,0
0.005352792,1,0,0
0.005353917,0,0,0
0.005355167,1,0,0
0.005356167,0,0,0
0.005360583,1,0,0
0.005361708,0,0,0
0.005362958,1,0,0
0.005364083,0,0,0
0.005365333,1,0,0
0.005366500,0,0,0
0.005367750,1,0,0
0.005368875,0,0,0
0.005370125,1,0,0
0.005371250,0,0,0
0.005372500,1,0,0
0.005373667,0,0,0
0.005374917,1,0,0
0.005376042,0,0,0
0.005376667,0,1,0
0.005377417,1,1,0
0.005378417,0,1,0
0.005382958,1,1,0
0.005384083,0,1,0
0.005385458,1,1,0
0.005386625,0,1,0
0.005388000,1,1,0
0.005389125,0,1,0
0.005390500,1,1,0
0.005391625,0,1,0
0.005392375,0,0,0
0.005392917,1,0,0
0.005394042,0,0,0
0.005395292,1,0,0
0.005396417,0,0,0
0.005397667,1,0,0
0.005398792,0,0,0
0.005400083,1,0,0
0.005401083,0,0,0
0.005405458,1,0,0
0.005406625,0,0,0
0.005407875,1,0,0
0.005409000,0,0,0
0.005410250,1,0,0
0.005411375,0,0,0
0.005412625,1,0,0
0.005413792,0,0,0
0.005415042,1,0,0
0.005416167,0,0,0
0.005417417,1,0,0
0.005418542,0,0,0
0.005419833,1,0,0
0.005420958,0,0,0
0.005421583,0,1,0
0.005422333,1,1,0
0.005423333,0,1,0
0.005427875,1,1,0
0.005429000,0,1,0
0.005430375,1,1,0
0.005431500,0,1,0
0.005432917,1,1,0
0.005434042,0,1,0
0.005434792,0,0,0
0.005435292,1,0,0
0.005436417,0,0,0
0.005437042,0,1,0
0.005437792,1,1,0
0.005438958,0,1,0
0.005440333,1,1,0
0.005441458,0,1,0
0.005442208,0,0,0
0.005442708,1,0,0
0.005443833,0,0,0
0.005444458,0,1,0
0.005445208,1,1,0
0.005446250,0,1,0
0.005450125,0,0,0
0.005450625,1,0,0
0.005451750,0,0,0
0.005453042,1,0,0
0.005454167,0,0,0
0.005455417,1,0,0
0.005456542,0,0,0
0.005457792,1,0,0
0.005458958,0,0,0
0.005460208,1,0,0
0.005461333,0,0,0
0.005462583,1,0,0
0.005463708,0,0,0
0.005464958,1,0,0
0.005466125,0,0,0
0.005467375,1,0,0
0.005468375,0,0,0
0.005472792,1,0,0
0.005473917,0,0,0
0.005475167,1,0,0
0.005476292,0,0,0
0.005477542,1,0,0
0.005478708,0,0,0
0.005479958,1,0,0
0.005481083,0,0,0
0.005482333,1,0,0
0.005483458,0,0,0
0.005484708,1,0,0
0.005485875,0,0,0
0.005487125,1,0,0
0.005488250,0,0,0
0.005489500,1,0,0
0.005490500,0,0,0
0.005494917,1,0,0
0.005496042,0,0,0
0.005497292,1,0,0
0.005498458,0,0,0
0.005499708,1,0,0
0.005500833,0,0,0
0.005502083,1,0,0
0.005503208,0,0,0
0.005504458,1,0,0
0.005505625,0,0,0
0.005506875,1,0,0
0.005508000,0,0,0
0.005509250,1,0,0
0.005510375,0,0,0
0.005511625,1,0,0
0.005512667,0,0,0
0.005517042,1,0,0
0.005518167,0,0,0
0.005519458,1,0,0
0.005520583,0,0,0
0.005521833,1,0,0
0.005522958,0,0,0
0.005524208,1,0,0
0.005525375,0,0,0
0.005526625,1,0,0
0.005527750,0,0,0
0.005529000,1,0,0
0.005530125,0,0,0
0.005531375,1,0,0
0.005532542,0,0,0
0.005533792,1,0,0
0.005534792,0,0,0
0.005539208,1,0,0
0.005540333,0,0,0
0.005541583,1,0,0
0.005542708,0,0,0
0.005543958,1,0,0
0.005545125,0,0,0
0.005546375,1,0,0
0.005547500,0,0,0
0.005548750,1,0,0
0.005549875,0,0,0
0.005551125,1,0,0
0.005552292,0,0,0
0.005553542,1,0,0
0.005554667,0,0,0
0.005555917,1,0,0
0.005556917,0,0,0
0.005560708,0,1,0
0.005561458,1,1,0
0.005562583,0,1,0
0.005563333,0,0,0
0.005563833,1,0,0
0.005565000,0,0,0
0.005566250,1,0,0
0.005567375,0,0,0
0.005568625,1,0,0
0.005569750,0,0,0
0.005571042,1,0,0
0.005572167,0,0,0
0.005573417,1,0,0
0.005574542,0,0,0
0.005575792,1,0,0
0.005576917,0,0,0
0.005578208,1,0,0
0.005579208,0,0,0
0.005582958,0,1,0
0.005583708,1,1,0
0.005584875,0,1,0
0.005585625,0,0,0
0.005586125,1,0,0
0.005587250,0,0,0
0.005588500,1,0,0
0.005589625,0,0,0
0.005590875,1,0,0
0.005592042,0,0,0
0.005593292,1,0,0
0.005594417,0,0,0
0.005595667,1,0,0
0.005596792,0,0,0
0.005598083,1,0,0
0.005599208,0,0,0
0.005600458,1,0,0
0.005601458,0,0,0
0.005605875,1,0,0
0.005607000,0,0,0
0.005608250,1,0,0
0.005609375,0,0,0
0.005610667,1,0,0
0.005611792,0,0,0
0.005613042,1,0,0
0.005614167,0,0,0
0.005615417,1,0,0
0.005616542,0,0,0
0.005617833,1,0,0
0.005618958,0,0,0
0.005620208,1,0,0
0.005621333,0,0,0
0.005622583,1,0,0
0.005623625,0,0,0
0.005628000,1,0,0
0.005629125,0,0,0
0.005630417,1,0,0
0.005631542,0,0,0
0.005632792,1,0,0
0.005633917,0,0,0
0.005635167,1,0,0
0.005636333,0,0,0
0.005637583,1,0,0
0.005638708,0,0,0
0.005639958,1,0,0
0.005641083,0,0,0
0.005642333,1,0,0
0.005643500,0,0,0
0.005644750,1,0,0
0.005645750,0,0,0
0.005650167,1,0,0
0.005651292,0,0,0
0.005652542,1,0,0
0.005653667,0,0,0
0.005654917,1,0,0
0.005656083,0,0,0
0.005657333,1,0,0
0.005658458,0,0,0
0.005659708,1,0,0
0.005660833,0,0,0
0.005662083,1,0,0
0.005663250,0,0,0
0.005664500,1,0,0
0.005665625,0,0,0
0.005666875,1,0,0
0.005667875,0,0,0
0.005672292,1,0,0
0.005673417,0,0,0
0.005674667,1,0,0
0.005675792,0,0,0
0.005677083,1,0,0
0.005678208,0,0,0
0.005679458,1,0,0
0.005680583,0,0,0
0.005681833,1,0,0
0.005683000,0,0,0
0.005684250,1,0,0
0.005685375,0,0,0
0.005686625,1,0,0
0.005687750,0,0,0
0.005689000,1,0,0
0.005690042,0,0,0
0.005694417,1,0,0
0.005758208,0,0,0
0.005759458,1,0,0
0.005760583,0,0,0
0.005761875,1,0,0
0.005763000,0,0,0
0.005764250,1,0,0
0.005765375,0,0,0
0.005766625,1,0,0
0.005767750,0,0,0
0.005769042,1,0,0
0.005770167,0,0,0
0.005771417,1,0,0
0.005772542,0,0,0
0.005773792,1,0,0
0.005774833,0,0,0
0.005776583,0,0,1
0.011777208,0,0,0
0.011779583,1,0,0
0.011780708,0,0,0
0.011782000,1,0,0
0.011783125,0,0,0
0.011784375,1,0,0
0.011785500,0,0,0
0.011786750,1,0,0
0.011787875,0,0,0
0.011789167,1,0,0
0.011790292,0,0,0
0.011790917,0,1,0
0.011791667,1,1,0
0.011792792,0,1,0
0.011794167,1,1,0
0.011795333,0,1,0
0.011796708,1,1,0
0.011797708,0,1,0
0.011798708,0,0,0
0.011799583,1,0,0
0.011801083,0,0,0
0.011801625,1,0,0
0.011803125,0,1,0
0.011803625,1,1,0
0.011805125,0,0,0
0.011805625,1,0,0
0.011807125,0,0,0
0.011807167,0,1,0
0.011807625,1,1,0
0.011809167,0,1,0
0.011809667,1,1,0
0.011811167,0,1,0
0.011811667,1,1,0
0.011813167,0,0,0
0.011813667,1,0,0
0.011815042,0,0,0
0.011815833,0,0,1
0.011816000,0,1,1
0.011820583,0,1,0
0.011823250,1,1,0
0.011824375,0,1,0
0.011825750,1,1,0
0.011826875,0,1,0
0.011828250,1,1,0
0.011829417,0,1,0
0.011830167,0,0,0
0.011830667,1,0,0
0.011831792,0,0,0
0.011833042,1,0,0
0.011834167,0,0,0
0.011835417,1,0,0
0.011836583,0,0,0
0.011837833,1,0,0
0.011838958,0,0,0
0.011839583,0,1,0
0.011840333,1,1,0
0.011841333,0,1,0
0.011843625,0,0,0
0.011844125,1,0,0
0.011845250,0,0,0
0.011846500,1,0,0
0.011847625,0,0,0
0.011848875,1,0,0
0.011850000,0,0,0
0.011851292,1,0,0
0.011852417,0,0,0
0.011853667,1,0,0
0.011854792,0,0,0
0.011856042,1,0,0
0.011857167,0,0,0
0.011858458,1,0,0
0.011859583,0,0,0
0.011860833,1,0,0
0.011861833,0,0,0
0.011862583,0,0,1
0.011866250,0,0,0
0.011868125,0,1,0
0.011868875,1,1,0
0.011870000,0,1,0
0.011871417,1,1,0
0.011872542,0,1,0
0.011873917,1,1,0
0.011875042,0,1,0
0.011875792,0,0,0
0.011876292,1,0,0
0.011877458,0,0,0
0.011878708,1,0,0
0.011879833,0,0,0
0.011881083,1,0,0
0.011882208,0,0,0
0.011882833,0,1,0
0.011883625,1,1,0
0.011884750,0,1,0
0.011885500,0,0,0
0.011886000,1,0,0
0.011887000,0,0,0
0.011889750,1,0,0
0.011890917,0,0,0
0.011892167,1,0,0
0.011893292,0,0,0
0.011894542,1,0,0
0.011895667,0,0,0
0.011896958,1,0,0
0.011898083,0,0,0
0.011899333,1,0,0
0.011900458,0,0,0
0.011901708,1,0,0
0.011902833,0,0,0
0.011904125,1,0,0
0.011905250,0,0,0
0.011906500,1,0,0
0.011907500,0,0,0
0.011908250,0,0,1
0.011912042,0,0,0
0.011914542,1,0,0
0.011915667,0,0,0
0.011916958,1,0,0
0.011918083,0,0,0
0.011918708,0,1,0
0.011919458,1,1,0
0.011920583,0,1,0
0.011921333,0,0,0
0.011921833,1,0,0
0.011923000,0,0,0
0.011924250,1,0,0
0.011925375,0,0,0
0.011926000,0,1,0
0.011926750,1,1,0
0.011927875,0,1,0
0.011929292,1,1,0
0.011930417,0,1,0
0.011931792,1,1,0
0.011932792,0,1,0
0.011935042,0,0,0
0.011935542,1,0,0
0.011936708,0,0,0
0.011937333,0,1,0
0.011938083,1,1,0
0.011939208,0,1,0
0.011940583,1,1,0
0.011941708,0,1,0
0.011943125,1,1,0
0.011944250,0,1,0
0.011945000,0,0,0
0.011945500,1,0,0
0.011946625,0,0,0
0.011947875,1,0,0
0.011949042,0,0,0
0.011950292,1,0,0
0.011951417,0,0,0
0.011952667,1,0,0
0.011953667,0,0,0
0.011954417,0,0,1
0.014786125,0,0,0
0.014788000,0,1,0
0.014788792,1,1,0
0.014789917,0,1,0
0.014791292,1,1,0
0.014792417,0,1,0
0.014793792,1,1,0
0.014794917,0,1,0
0.014795708,0,0,0
0.014796208,1,0,0
0.014797333,0,0,0
0.014798583,1,0,0
0.014799708,0,0,0
0.014800958,1,0,0
0.014802083,0,0,0
0.014803375,1,0,0
0.014804500,0,0,0
0.014805125,0,1,0
0.014805875,1,1,0
0.014806875,0,1,0
0.014809167,0,0,0
0.014809667,1,0,0
0.014810792,0,0,0
0.014812042,1,0,0
0.014813167,0,0,0
0.014814417,1,0,0
0.014815542,0,0,0
0.014816833,1,0,0
